#  HZ   S   RI   R     50.00 
! Rohde & Schwarz Vector Network Analyzer 
! Rohde-Schwarz,ZND-2Port,1328517092100779,2.70
! Created: UTC 4/25/2023, 5:14:36 AM
! freq[Hz]                re:S11                  im:S11
1.00E+07	1.31749254652285000 	-0.02314856109663100 
2.00E+07	1.31673719572190000 	-0.04628082212523770 
3.00E+07	1.31547944856890000 	-0.06938052090398860 
4.00E+07	1.31372105705400000 	-0.09243147083866280 
5.00E+07	1.31146446542654000 	-0.11541759825606300 
6.00E+07	1.30871280172463000 	-0.13832297918926500 
7.00E+07	1.30546986697885000 	-0.16113187543907100 
8.00E+07	1.30174012215920000 	-0.18382876974206200 
9.00E+07	1.29752867294870000 	-0.20639839988292600 
1.00E+08	1.29284125243976000 	-0.22882579159734500 
1.10E+08	1.28768420186181000 	-0.25109629012148800 
1.20E+08	1.28206444945961000 	-0.27319559025491000 
1.30E+08	1.27598948765147000 	-0.29510976481536300 
1.40E+08	1.26946734860530000 	-0.31682529137645600 
1.50E+08	1.26250657837766000 	-0.33832907719222700 
1.60E+08	1.25511620976690000 	-0.35960848222616900 
1.70E+08	1.24730573403610000 	-0.38065134021619300 
1.80E+08	1.23908507166465000 	-0.40144597772103900 
1.90E+08	1.23046454228926000 	-0.42198123110772200 
2.00E+08	1.22145483399536000 	-0.44224646145356900 
2.10E+08	1.21206697211938000 	-0.46223156735013000 
2.20E+08	1.20231228772021000 	-0.48192699560959600 
2.30E+08	1.19220238587468000 	-0.50132374988716100 
2.40E+08	1.18174911394787000 	-0.52041339724511300 
2.50E+08	1.17096452998370000 	-0.53918807269590100 
2.60E+08	1.15986087135461000 	-0.55764048177226500 
2.70E+08	1.14845052380270000 	-0.57576390118249800 
2.80E+08	1.13674599099649000 	-0.59355217761789100 
2.90E+08	1.12475986471926000 	-0.61099972478757600 
3.00E+08	1.11250479579627000 	-0.62810151876317800 
3.10E+08	1.09999346585874000 	-0.64485309172177400 
3.20E+08	1.08723856003326000 	-0.66125052418094100 
3.30E+08	1.07425274063554000 	-0.67729043582388100 
3.40E+08	1.06104862193787000 	-0.69296997501583000 
3.50E+08	1.04763874606990000 	-0.70828680711541600 
3.60E+08	1.03403556010312000 	-0.72323910168597700 
3.70E+08	1.02025139435964000 	-0.73782551871253200 
3.80E+08	1.00629844197736000 	-0.75204519392992000 
3.90E+08	0.99218873975454700 	-0.76589772336663800 
4.00E+08	0.97793415028854100 	-0.77938314720741900 
4.10E+08	0.96354634541561400 	-0.79250193307524300 
4.20E+08	0.94903679095130000 	-0.80525495883081300 
4.30E+08	0.93441673272375700 	-0.81764349498417400 
4.40E+08	0.91969718388626400 	-0.82966918680953200 
4.50E+08	0.90488891348899700 	-0.84133403625019600 
4.60E+08	0.89000243628500000 	-0.85264038369629700 
4.70E+08	0.87504800374037900 	-0.86359088971325700 
4.80E+08	0.86003559621454500 	-0.87418851679424000 
4.90E+08	0.84497491627256500 	-0.88443651120486500 
5.00E+08	0.82987538308857200 	-0.89433838498354800 
5.10E+08	0.81474612789637100 	-0.90389789815568900 
5.20E+08	0.79959599044124400 	-0.91311904121498600 
5.30E+08	0.78443351638519700 	-0.92200601792016700 
5.40E+08	0.76926695561654100 	-0.93056322845052500 
5.50E+08	0.75410426141381100 	-0.93879525295887600 
5.60E+08	0.73895309041349200 	-0.94670683555589900 
5.70E+08	0.72382080333086300 	-0.95430286875545000 
5.80E+08	0.70871446638332700 	-0.96158837840593500 
5.90E+08	0.69364085336612600 	-0.96856850912900200 
6.00E+08	0.67860644833096800 	-0.97524851028271800 
6.10E+08	0.66361744881901300 	-0.98163372246284300 
6.20E+08	0.64867976960081700 	-0.98772956455233700 
6.30E+08	0.63379904687713100 	-0.99354152132607700 
6.40E+08	0.61898064289586700 	-0.99907513161469800 
6.50E+08	0.60422965094220000 	-1.00433597702883000 
6.60E+08	0.58955090066037200 	-1.00932967124241000 
6.70E+08	0.57494896366761600 	-1.01406184983148000 
6.80E+08	0.56042815942239000 	-1.01853816066287000 
6.90E+08	0.54599256131100700 	-1.02276425482510000 
7.00E+08	0.53164600291866600 	-1.02674577809251000 
7.10E+08	0.51739208445279100 	-1.03048836291177000 
7.20E+08	0.50323417928846800 	-1.03399762089897000 
7.30E+08	0.48917544060776300 	-1.03727913583419000 
7.40E+08	0.47521880810646900 	-1.04033845713958000 
7.50E+08	0.46136701474374300 	-1.04318109382613000 
7.60E+08	0.44762259351189800 	-1.04581250889379000 
7.70E+08	0.43398788420531700 	-1.04823811416901000 
7.80E+08	0.42046504016920500 	-1.05046326556333000 
7.90E+08	0.40705603501049800 	-1.05249325873645000 
8.00E+08	0.39376266925485600 	-1.05433332514716000 
8.10E+08	0.38058657693511700 	-1.05598862847518000 
8.20E+08	0.36752923209810900 	-1.05746426139704000 
8.30E+08	0.35459195521800800 	-1.05876524269961000 
8.40E+08	0.34177591950577100 	-1.05989651471438000 
8.50E+08	0.32908215710539600 	-1.06086294105627000 
8.60E+08	0.31651156516890000 	-1.06166930465106000 
8.70E+08	0.30406491180300100 	-1.06232030603547000 
8.80E+08	0.29174284188152100 	-1.06282056191470000 
8.90E+08	0.27954588271844100 	-1.06317460396230000 
9.00E+08	0.26747444959746100 	-1.06338687784792000 
9.10E+08	0.25552885115471200 	-1.06346174247880000 
9.20E+08	0.24370929461203100 	-1.06340346944121000 
9.30E+08	0.23201589085891800 	-1.06321624262891000 
9.40E+08	0.22044865938192500 	-1.06290415804573000 
9.50E+08	0.20900753304082200 	-1.06247122377020000 
9.60E+08	0.19769236269140100 	-1.06192136007040000 
9.70E+08	0.18650292165532600 	-1.06125839965804000 
9.80E+08	0.17543891003777800 	-1.06048608807091000 
9.90E+08	0.16449995889413500 	-1.05960808417347000 
1.00E+09	0.15368563424725100 	-1.05862796076604000 
